date Wed Mar 27 09:51:27.284 am 2019
base hex  timestamps absolute
internal events logged
// version 8.5.0
Begin Triggerblock Wed Mar 27 09:51:27.284 am 2019
   0.000000 Start of measurement
   0.001328 CAN 1 Status:chip status error active
   0.001450 CAN 2 Status:chip status error active
   0.301518 1  7E1             Tx   d 8 02 10 01 00 00 00 00 00  Length = 240000 BitCount = 123 ID = 2017
   0.303893 1  7E9             Rx   d 8 06 50 01 00 32 00 C8 AA  Length = 228000 BitCount = 118 ID = 2025
   0.351530 1  7E1             Tx   d 8 02 10 03 00 00 00 00 00  Length = 242000 BitCount = 124 ID = 2017
   0.353610 1  7E9             Rx   d 8 06 50 03 00 32 00 C8 AA  Length = 228000 BitCount = 118 ID = 2025
   0.401521 1  7E1             Tx   d 8 03 28 00 01 00 00 00 00  Length = 240000 BitCount = 123 ID = 2017
   0.403888 1  7E9             Rx   d 8 02 68 00 AA AA AA AA AA  Length = 222000 BitCount = 115 ID = 2025
   0.451541 1  7E1             Tx   d 8 03 22 01 00 00 00 00 00  Length = 238000 BitCount = 122 ID = 2017
   0.453609 1  7E9             Rx   d 8 10 13 62 01 00 FF 00 C8  Length = 230000 BitCount = 119 ID = 2025
   0.454291 1  7E1             Tx   d 8 30 00 00 00 00 00 00 00  Length = 244000 BitCount = 125 ID = 2017
   0.484138 1  7E9             Rx   d 8 21 00 00 00 00 00 00 00  Length = 242000 BitCount = 125 ID = 2025
   0.513623 1  7E9             Rx   d 8 22 00 00 00 00 00 00 AA  Length = 236000 BitCount = 122 ID = 2025
   0.551542 1  7E1             Tx   d 8 03 22 01 0C 00 00 00 00  Length = 238000 BitCount = 122 ID = 2017
   0.553636 1  7E9             Rx   d 8 05 62 01 0C FF 00 AA AA  Length = 226000 BitCount = 117 ID = 2025
   0.651536 1  7E1             Tx   d 8 03 22 01 20 00 00 00 00  Length = 236000 BitCount = 121 ID = 2017
   0.653619 1  7E9             Rx   d 8 10 13 62 01 20 FF 00 C8  Length = 230000 BitCount = 119 ID = 2025
   0.654269 1  7E1             Tx   d 8 30 00 00 00 00 00 00 00  Length = 244000 BitCount = 125 ID = 2017
   0.684128 1  7E9             Rx   d 8 21 00 00 00 00 00 00 00  Length = 242000 BitCount = 125 ID = 2025
   0.713638 1  7E9             Rx   d 8 22 00 00 00 00 00 00 AA  Length = 236000 BitCount = 122 ID = 2025
   0.751541 1  7E1             Tx   d 8 03 22 F1 80 00 00 00 00  Length = 238000 BitCount = 122 ID = 2017
   0.753610 1  7E9             Rx   d 8 10 13 62 F1 80 FF 00 C8  Length = 230000 BitCount = 119 ID = 2025
   0.754268 1  7E1             Tx   d 8 30 00 00 00 00 00 00 00  Length = 244000 BitCount = 125 ID = 2017
   0.784157 1  7E9             Rx   d 8 21 00 00 00 00 00 00 00  Length = 242000 BitCount = 125 ID = 2025
   0.813608 1  7E9             Rx   d 8 22 00 00 00 00 00 00 AA  Length = 236000 BitCount = 122 ID = 2025
   0.851507 1  7E1             Tx   d 8 03 22 F1 97 00 00 00 00  Length = 234000 BitCount = 120 ID = 2017
   0.853615 1  7E9             Rx   d 8 10 0D 62 F1 97 FF 00 C8  Length = 226000 BitCount = 117 ID = 2025
   0.854271 1  7E1             Tx   d 8 30 00 00 00 00 00 00 00  Length = 244000 BitCount = 125 ID = 2017
   0.884128 1  7E9             Rx   d 8 21 00 00 00 00 00 00 00  Length = 242000 BitCount = 125 ID = 2025
   0.951521 1  7E1             Tx   d 8 02 11 01 00 00 00 00 00  Length = 240000 BitCount = 123 ID = 2017
   0.953598 1  7E9             Rx   d 8 02 51 01 AA AA AA AA AA  Length = 220000 BitCount = 114 ID = 2025
   0.963032 1  ErrorFrame	ECC: 10101010
   0.963032 CAN 1 Status:chip status error active  - TxErr: 0 RxErr: 1
   2.000519 CAN 1 Status:chip status error active
   2.950795 1  7E1             Tx   d 8 02 10 01 00 00 00 00 00  Length = 240000 BitCount = 123 ID = 2017
   2.960766 1  7E9             Rx   d 8 06 50 01 00 32 00 C8 AA  Length = 228000 BitCount = 118 ID = 2025
   3.000781 1  7E1             Tx   d 8 03 22 01 08 00 00 00 00  Length = 236000 BitCount = 121 ID = 2017
   3.011267 1  7E9             Rx   d 8 07 62 01 08 FF 00 C8 00  Length = 230000 BitCount = 119 ID = 2025
   3.100775 1  7E1             Tx   d 8 03 22 01 08 00 00 00 00  Length = 236000 BitCount = 121 ID = 2017
   3.111273 1  7E9             Rx   d 8 07 62 01 08 FF 00 C8 00  Length = 230000 BitCount = 119 ID = 2025
   3.200767 1  7E1             Tx   d 8 03 22 01 0D 00 00 00 00  Length = 236000 BitCount = 121 ID = 2017
   3.211258 1  7E9             Rx   d 8 05 62 01 0D FF 00 AA AA  Length = 224000 BitCount = 116 ID = 2025
   3.300754 1  7E1             Tx   d 8 03 22 01 55 00 00 00 00  Length = 234000 BitCount = 120 ID = 2017
   3.311268 1  7E9             Rx   d 8 10 2B 62 01 55 FF 00 C8  Length = 226000 BitCount = 117 ID = 2025
   3.311778 1  7E1             Tx   d 8 30 00 00 00 00 00 00 00  Length = 244000 BitCount = 125 ID = 2017
   3.340783 1  7E9             Rx   d 8 21 00 00 00 00 00 00 00  Length = 242000 BitCount = 125 ID = 2025
   3.371012 1  7E9             Rx   d 8 22 00 00 00 00 00 00 00  Length = 240000 BitCount = 124 ID = 2025
   3.400771 1  7E1             Tx   d 8 03 22 F1 90 00 00 00 00  Length = 234000 BitCount = 120 ID = 2017
   3.401017 1  7E9             Rx   d 8 23 00 00 00 00 00 00 00  Length = 240000 BitCount = 124 ID = 2025
   3.431008 1  7E9             Rx   d 8 24 00 00 00 00 00 00 00  Length = 242000 BitCount = 125 ID = 2025
   3.460785 1  7E9             Rx   d 8 25 00 00 00 00 00 00 00  Length = 240000 BitCount = 124 ID = 2025
   3.491026 1  7E9             Rx   d 8 26 00 00 AA AA AA AA AA  Length = 228000 BitCount = 118 ID = 2025
   4.400780 1  7E1             Tx   d 8 02 10 03 00 00 00 00 00  Length = 242000 BitCount = 124 ID = 2017
   4.411256 1  7E9             Rx   d 8 06 50 03 00 32 00 C8 AA  Length = 228000 BitCount = 118 ID = 2025
   4.700771 1  7E1             Tx   d 8 03 28 03 01 00 00 00 00  Length = 236000 BitCount = 121 ID = 2017
   4.711257 1  7E9             Rx   d 8 02 68 03 AA AA AA AA AA  Length = 222000 BitCount = 115 ID = 2025
   4.801505 1  7E1             Tx   d 8 02 11 01 00 00 00 00 00  Length = 240000 BitCount = 123 ID = 2017
   4.810255 1  7E9             Rx   d 8 02 51 01 AA AA AA AA AA  Length = 220000 BitCount = 114 ID = 2025
   7.001513 1  7E1             Tx   d 8 02 10 01 00 00 00 00 00  Length = 240000 BitCount = 123 ID = 2017
   7.008115 1  7E9             Rx   d 8 06 50 01 00 32 00 C8 AA  Length = 228000 BitCount = 118 ID = 2025
   7.051500 1  7E1             Tx   d 8 02 10 03 00 00 00 00 00  Length = 242000 BitCount = 124 ID = 2017
   7.057852 1  7E9             Rx   d 8 06 50 03 00 32 00 C8 AA  Length = 228000 BitCount = 118 ID = 2025
   7.101497 1  7E1             Tx   d 8 03 28 00 01 00 00 00 00  Length = 240000 BitCount = 123 ID = 2017
   7.108128 1  7E9             Rx   d 8 02 68 00 AA AA AA AA AA  Length = 222000 BitCount = 115 ID = 2025
   7.151499 1  7E1             Tx   d 8 03 22 01 00 00 00 00 00  Length = 238000 BitCount = 122 ID = 2017
   7.157873 1  7E9             Rx   d 8 10 13 62 01 00 FF 00 C8  Length = 230000 BitCount = 119 ID = 2025
   7.158483 1  7E1             Tx   d 8 30 00 00 00 00 00 00 00  Length = 244000 BitCount = 125 ID = 2017
   7.188153 1  7E9             Rx   d 8 21 00 00 00 00 00 00 00  Length = 242000 BitCount = 125 ID = 2025
   7.217852 1  7E9             Rx   d 8 22 00 00 00 00 00 00 AA  Length = 236000 BitCount = 122 ID = 2025
   7.251517 1  7E1             Tx   d 8 03 22 01 0C 00 00 00 00  Length = 238000 BitCount = 122 ID = 2017
   7.257884 1  7E9             Rx   d 8 05 62 01 0C FF 00 AA AA  Length = 226000 BitCount = 117 ID = 2025
   7.351489 1  7E1             Tx   d 8 03 22 01 20 00 00 00 00  Length = 236000 BitCount = 121 ID = 2017
   7.357869 1  7E9             Rx   d 8 10 13 62 01 20 FF 00 C8  Length = 230000 BitCount = 119 ID = 2025
   7.358476 1  7E1             Tx   d 8 30 00 00 00 00 00 00 00  Length = 244000 BitCount = 125 ID = 2017
   7.388139 1  7E9             Rx   d 8 21 00 00 00 00 00 00 00  Length = 242000 BitCount = 125 ID = 2025
   7.417862 1  7E9             Rx   d 8 22 00 00 00 00 00 00 AA  Length = 236000 BitCount = 122 ID = 2025
   7.451515 1  7E1             Tx   d 8 03 22 F1 80 00 00 00 00  Length = 238000 BitCount = 122 ID = 2017
   7.457851 1  7E9             Rx   d 8 10 13 62 F1 80 FF 00 C8  Length = 230000 BitCount = 119 ID = 2025
   7.458501 1  7E1             Tx   d 8 30 00 00 00 00 00 00 00  Length = 244000 BitCount = 125 ID = 2017
   7.488146 1  7E9             Rx   d 8 21 00 00 00 00 00 00 00  Length = 242000 BitCount = 125 ID = 2025
   7.517871 1  7E9             Rx   d 8 22 00 00 00 00 00 00 AA  Length = 236000 BitCount = 122 ID = 2025
   7.551512 1  7E1             Tx   d 8 03 22 F1 97 00 00 00 00  Length = 234000 BitCount = 120 ID = 2017
   7.557866 1  7E9             Rx   d 8 10 0D 62 F1 97 FF 00 C8  Length = 226000 BitCount = 117 ID = 2025
   7.558493 1  7E1             Tx   d 8 30 00 00 00 00 00 00 00  Length = 244000 BitCount = 125 ID = 2017
   7.588127 1  7E9             Rx   d 8 21 00 00 00 00 00 00 00  Length = 242000 BitCount = 125 ID = 2025
   7.651515 1  7E1             Tx   d 8 02 11 01 00 00 00 00 00  Length = 240000 BitCount = 123 ID = 2017
   7.657851 1  7E9             Rx   d 8 02 51 01 AA AA AA AA AA  Length = 220000 BitCount = 114 ID = 2025
   7.667265 1  ErrorFrame	ECC: 10101010
   7.667265 CAN 1 Status:chip status error active  - TxErr: 0 RxErr: 1
   8.001226 CAN 1 Status:chip status error active
   9.651494 1  7E1             Tx   d 8 02 10 01 00 00 00 00 00  Length = 240000 BitCount = 123 ID = 2017
   9.655255 1  7E9             Rx   d 8 06 50 01 00 32 00 C8 AA  Length = 228000 BitCount = 118 ID = 2025
   9.701488 1  7E1             Tx   d 8 03 22 01 08 00 00 00 00  Length = 236000 BitCount = 121 ID = 2017
   9.704988 1  7E9             Rx   d 8 07 62 01 08 FF 00 C8 00  Length = 230000 BitCount = 119 ID = 2025
   9.801493 1  7E1             Tx   d 8 03 22 01 08 00 00 00 00  Length = 236000 BitCount = 121 ID = 2017
   9.804995 1  7E9             Rx   d 8 07 62 01 08 FF 00 C8 00  Length = 230000 BitCount = 119 ID = 2025
   9.901491 1  7E1             Tx   d 8 03 22 01 0D 00 00 00 00  Length = 236000 BitCount = 121 ID = 2017
   9.904976 1  7E9             Rx   d 8 05 62 01 0D FF 00 AA AA  Length = 224000 BitCount = 116 ID = 2025
  10.001511 1  7E1             Tx   d 8 03 22 01 55 00 00 00 00  Length = 234000 BitCount = 120 ID = 2017
  10.004988 1  7E9             Rx   d 8 10 2B 62 01 55 FF 00 C8  Length = 226000 BitCount = 117 ID = 2025
  10.005496 1  7E1             Tx   d 8 30 00 00 00 00 00 00 00  Length = 244000 BitCount = 125 ID = 2017
  10.035275 1  7E9             Rx   d 8 21 00 00 00 00 00 00 00  Length = 242000 BitCount = 125 ID = 2025
  10.064980 1  7E9             Rx   d 8 22 00 00 00 00 00 00 00  Length = 240000 BitCount = 124 ID = 2025
  10.095232 1  7E9             Rx   d 8 23 00 00 00 00 00 00 00  Length = 240000 BitCount = 124 ID = 2025
  10.101487 1  7E1             Tx   d 8 03 22 F1 90 00 00 00 00  Length = 234000 BitCount = 120 ID = 2017
  10.125013 1  7E9             Rx   d 8 24 00 00 00 00 00 00 00  Length = 242000 BitCount = 125 ID = 2025
  10.155248 1  7E9             Rx   d 8 25 00 00 00 00 00 00 00  Length = 240000 BitCount = 124 ID = 2025
  10.184987 1  7E9             Rx   d 8 26 00 00 AA AA AA AA AA  Length = 228000 BitCount = 118 ID = 2025
  11.101486 1  7E1             Tx   d 8 02 10 03 00 00 00 00 00  Length = 242000 BitCount = 124 ID = 2017
  11.104972 1  7E9             Rx   d 8 06 50 03 00 32 00 C8 AA  Length = 228000 BitCount = 118 ID = 2025
  11.401474 1  7E1             Tx   d 8 03 28 03 01 00 00 00 00  Length = 236000 BitCount = 121 ID = 2017
  11.404972 1  7E9             Rx   d 8 02 68 03 AA AA AA AA AA  Length = 222000 BitCount = 115 ID = 2025
  11.501533 1  7E1             Tx   d 8 02 11 01 00 00 00 00 00  Length = 240000 BitCount = 123 ID = 2017
  11.504495 1  7E9             Rx   d 8 02 51 01 AA AA AA AA AA  Length = 220000 BitCount = 114 ID = 2025
  13.701487 1  7E1             Tx   d 8 02 10 01 00 00 00 00 00  Length = 240000 BitCount = 123 ID = 2017
  13.712093 1  7E9             Rx   d 8 06 50 01 00 32 00 C8 AA  Length = 228000 BitCount = 118 ID = 2025
  13.751534 1  7E1             Tx   d 8 02 10 03 00 00 00 00 00  Length = 242000 BitCount = 124 ID = 2017
  13.762589 1  7E9             Rx   d 8 06 50 03 00 32 00 C8 AA  Length = 228000 BitCount = 118 ID = 2025
  13.801512 1  7E1             Tx   d 8 03 28 00 01 00 00 00 00  Length = 240000 BitCount = 123 ID = 2017
  13.812084 1  7E9             Rx   d 8 02 68 00 AA AA AA AA AA  Length = 222000 BitCount = 115 ID = 2025
  13.851483 1  7E1             Tx   d 8 03 22 01 00 00 00 00 00  Length = 238000 BitCount = 122 ID = 2017
  13.862584 1  7E9             Rx   d 8 10 13 62 01 00 FF 00 C8  Length = 230000 BitCount = 119 ID = 2025
  13.863246 1  7E1             Tx   d 8 30 00 00 00 00 00 00 00  Length = 244000 BitCount = 125 ID = 2017
  13.892124 1  7E9             Rx   d 8 21 00 00 00 00 00 00 00  Length = 242000 BitCount = 125 ID = 2025
  13.922353 1  7E9             Rx   d 8 22 00 00 00 00 00 00 AA  Length = 236000 BitCount = 122 ID = 2025
  13.951490 1  7E1             Tx   d 8 03 22 01 0C 00 00 00 00  Length = 238000 BitCount = 122 ID = 2017
  13.962599 1  7E9             Rx   d 8 05 62 01 0C FF 00 AA AA  Length = 226000 BitCount = 117 ID = 2025
  14.051501 1  7E1             Tx   d 8 03 22 01 20 00 00 00 00  Length = 236000 BitCount = 121 ID = 2017
  14.062606 1  7E9             Rx   d 8 10 13 62 01 20 FF 00 C8  Length = 230000 BitCount = 119 ID = 2025
  14.063262 1  7E1             Tx   d 8 30 00 00 00 00 00 00 00  Length = 244000 BitCount = 125 ID = 2017
  14.092093 1  7E9             Rx   d 8 21 00 00 00 00 00 00 00  Length = 242000 BitCount = 125 ID = 2025
  14.122348 1  7E9             Rx   d 8 22 00 00 00 00 00 00 AA  Length = 236000 BitCount = 122 ID = 2025
  14.151509 1  7E1             Tx   d 8 03 22 F1 80 00 00 00 00  Length = 238000 BitCount = 122 ID = 2017
  14.162586 1  7E9             Rx   d 8 10 13 62 F1 80 FF 00 C8  Length = 230000 BitCount = 119 ID = 2025
  14.163264 1  7E1             Tx   d 8 30 00 00 00 00 00 00 00  Length = 244000 BitCount = 125 ID = 2017
  14.192094 1  7E9             Rx   d 8 21 00 00 00 00 00 00 00  Length = 242000 BitCount = 125 ID = 2025
  14.222335 1  7E9             Rx   d 8 22 00 00 00 00 00 00 AA  Length = 236000 BitCount = 122 ID = 2025
  14.251502 1  7E1             Tx   d 8 03 22 F1 97 00 00 00 00  Length = 234000 BitCount = 120 ID = 2017
  14.262597 1  7E9             Rx   d 8 10 0D 62 F1 97 FF 00 C8  Length = 226000 BitCount = 117 ID = 2025
  14.263265 1  7E1             Tx   d 8 30 00 00 00 00 00 00 00  Length = 244000 BitCount = 125 ID = 2017
  14.292103 1  7E9             Rx   d 8 21 00 00 00 00 00 00 00  Length = 242000 BitCount = 125 ID = 2025
  14.351487 1  7E1             Tx   d 8 02 11 01 00 00 00 00 00  Length = 240000 BitCount = 123 ID = 2017
  14.362590 1  7E9             Rx   d 8 02 51 01 AA AA AA AA AA  Length = 220000 BitCount = 114 ID = 2025
  14.371484 1  ErrorFrame	ECC: 10101010
  14.371484 CAN 1 Status:chip status error active  - TxErr: 0 RxErr: 1
  15.001201 CAN 1 Status:chip status error active
  16.351488 1  7E1             Tx   d 8 02 10 01 00 00 00 00 00  Length = 240000 BitCount = 123 ID = 2017
  16.359465 1  7E9             Rx   d 8 06 50 01 00 32 00 C8 AA  Length = 228000 BitCount = 118 ID = 2025
  16.401486 1  7E1             Tx   d 8 03 22 01 08 00 00 00 00  Length = 236000 BitCount = 121 ID = 2017
  16.409200 1  7E9             Rx   d 8 07 62 01 08 FF 00 C8 00  Length = 230000 BitCount = 119 ID = 2025
  16.501507 1  7E1             Tx   d 8 03 22 01 08 00 00 00 00  Length = 236000 BitCount = 121 ID = 2017
  16.509211 1  7E9             Rx   d 8 07 62 01 08 FF 00 C8 00  Length = 230000 BitCount = 119 ID = 2025
  16.601480 1  7E1             Tx   d 8 03 22 01 0D 00 00 00 00  Length = 236000 BitCount = 121 ID = 2017
  16.609196 1  7E9             Rx   d 8 05 62 01 0D FF 00 AA AA  Length = 224000 BitCount = 116 ID = 2025
  16.701530 1  7E1             Tx   d 8 03 22 01 55 00 00 00 00  Length = 234000 BitCount = 120 ID = 2017
  16.709194 1  7E9             Rx   d 8 10 2B 62 01 55 FF 00 C8  Length = 226000 BitCount = 117 ID = 2025
  16.709763 1  7E1             Tx   d 8 30 00 00 00 00 00 00 00  Length = 244000 BitCount = 125 ID = 2017
  16.739459 1  7E9             Rx   d 8 21 00 00 00 00 00 00 00  Length = 242000 BitCount = 125 ID = 2025
  16.769191 1  7E9             Rx   d 8 22 00 00 00 00 00 00 00  Length = 240000 BitCount = 124 ID = 2025
  16.799452 1  7E9             Rx   d 8 23 00 00 00 00 00 00 00  Length = 240000 BitCount = 124 ID = 2025
  16.801482 1  7E1             Tx   d 8 03 22 F1 90 00 00 00 00  Length = 234000 BitCount = 120 ID = 2017
  16.829216 1  7E9             Rx   d 8 24 00 00 00 00 00 00 00  Length = 242000 BitCount = 125 ID = 2025
  16.859476 1  7E9             Rx   d 8 25 00 00 00 00 00 00 00  Length = 240000 BitCount = 124 ID = 2025
  16.889203 1  7E9             Rx   d 8 26 00 00 AA AA AA AA AA  Length = 228000 BitCount = 118 ID = 2025
  17.801481 1  7E1             Tx   d 8 02 10 03 00 00 00 00 00  Length = 242000 BitCount = 124 ID = 2017
  17.809175 1  7E9             Rx   d 8 06 50 03 00 32 00 C8 AA  Length = 228000 BitCount = 118 ID = 2025
  18.101493 1  7E1             Tx   d 8 03 28 03 01 00 00 00 00  Length = 236000 BitCount = 121 ID = 2017
  18.109196 1  7E9             Rx   d 8 02 68 03 AA AA AA AA AA  Length = 222000 BitCount = 115 ID = 2025
  18.201496 1  7E1             Tx   d 8 02 11 01 00 00 00 00 00  Length = 240000 BitCount = 123 ID = 2017
  18.208700 1  7E9             Rx   d 8 02 51 01 AA AA AA AA AA  Length = 220000 BitCount = 114 ID = 2025
  20.401499 1  7E1             Tx   d 8 02 10 01 00 00 00 00 00  Length = 240000 BitCount = 123 ID = 2017
  20.406589 1  7E9             Rx   d 8 06 50 01 00 32 00 C8 AA  Length = 228000 BitCount = 118 ID = 2025
  20.451522 1  7E1             Tx   d 8 02 10 03 00 00 00 00 00  Length = 242000 BitCount = 124 ID = 2017
  20.456322 1  7E9             Rx   d 8 06 50 03 00 32 00 C8 AA  Length = 228000 BitCount = 118 ID = 2025
  20.501494 1  7E1             Tx   d 8 03 28 00 01 00 00 00 00  Length = 240000 BitCount = 123 ID = 2017
  20.506598 1  7E9             Rx   d 8 02 68 00 AA AA AA AA AA  Length = 222000 BitCount = 115 ID = 2025
  20.551499 1  7E1             Tx   d 8 03 22 01 00 00 00 00 00  Length = 238000 BitCount = 122 ID = 2017
  20.556313 1  7E9             Rx   d 8 10 13 62 01 00 FF 00 C8  Length = 230000 BitCount = 119 ID = 2025
  20.557015 1  7E1             Tx   d 8 30 00 00 00 00 00 00 00  Length = 244000 BitCount = 125 ID = 2017
  20.586582 1  7E9             Rx   d 8 21 00 00 00 00 00 00 00  Length = 242000 BitCount = 125 ID = 2025
  20.616317 1  7E9             Rx   d 8 22 00 00 00 00 00 00 AA  Length = 236000 BitCount = 122 ID = 2025
  20.651558 1  7E1             Tx   d 8 03 22 01 0C 00 00 00 00  Length = 238000 BitCount = 122 ID = 2017
  20.656314 1  7E9             Rx   d 8 05 62 01 0C FF 00 AA AA  Length = 226000 BitCount = 117 ID = 2025
  20.751552 1  7E1             Tx   d 8 03 22 01 20 00 00 00 00  Length = 236000 BitCount = 121 ID = 2017
  20.756322 1  7E9             Rx   d 8 10 13 62 01 20 FF 00 C8  Length = 230000 BitCount = 119 ID = 2025
  20.757056 1  7E1             Tx   d 8 30 00 00 00 00 00 00 00  Length = 244000 BitCount = 125 ID = 2017
  20.786591 1  7E9             Rx   d 8 21 00 00 00 00 00 00 00  Length = 242000 BitCount = 125 ID = 2025
  20.816337 1  7E9             Rx   d 8 22 00 00 00 00 00 00 AA  Length = 236000 BitCount = 122 ID = 2025
  20.851556 1  7E1             Tx   d 8 03 22 F1 80 00 00 00 00  Length = 238000 BitCount = 122 ID = 2017
  20.856304 1  7E9             Rx   d 8 10 13 62 F1 80 FF 00 C8  Length = 230000 BitCount = 119 ID = 2025
  20.856812 1  7E1             Tx   d 8 30 00 00 00 00 00 00 00  Length = 244000 BitCount = 125 ID = 2017
  20.886593 1  7E9             Rx   d 8 21 00 00 00 00 00 00 00  Length = 242000 BitCount = 125 ID = 2025
  20.916334 1  7E9             Rx   d 8 22 00 00 00 00 00 00 AA  Length = 236000 BitCount = 122 ID = 2025
  20.951859 1  7E1             Tx   d 8 03 22 F1 97 00 00 00 00  Length = 234000 BitCount = 120 ID = 2017
  20.956313 1  7E9             Rx   d 8 10 0D 62 F1 97 FF 00 C8  Length = 226000 BitCount = 117 ID = 2025
  20.957007 1  7E1             Tx   d 8 30 00 00 00 00 00 00 00  Length = 244000 BitCount = 125 ID = 2017
  20.986580 1  7E9             Rx   d 8 21 00 00 00 00 00 00 00  Length = 242000 BitCount = 125 ID = 2025
  21.051516 1  7E1             Tx   d 8 02 11 01 00 00 00 00 00  Length = 240000 BitCount = 123 ID = 2017
  21.056304 1  7E9             Rx   d 8 02 51 01 AA AA AA AA AA  Length = 220000 BitCount = 114 ID = 2025
  21.065720 1  ErrorFrame	ECC: 10101010
  21.065720 CAN 1 Status:chip status error active  - TxErr: 0 RxErr: 1
  22.001216 CAN 1 Status:chip status error active
  23.051485 1  7E1             Tx   d 8 02 10 01 00 00 00 00 00  Length = 240000 BitCount = 123 ID = 2017
  23.053692 1  7E9             Rx   d 8 06 50 01 00 32 00 C8 AA  Length = 228000 BitCount = 118 ID = 2025
  23.101483 1  7E1             Tx   d 8 03 22 01 08 00 00 00 00  Length = 236000 BitCount = 121 ID = 2017
  23.103454 1  7E9             Rx   d 8 07 62 01 08 FF 00 C8 00  Length = 230000 BitCount = 119 ID = 2025
  23.201480 1  7E1             Tx   d 8 03 22 01 08 00 00 00 00  Length = 236000 BitCount = 121 ID = 2017
  23.203470 1  7E9             Rx   d 8 07 62 01 08 FF 00 C8 00  Length = 230000 BitCount = 119 ID = 2025
  23.301482 1  7E1             Tx   d 8 03 22 01 0D 00 00 00 00  Length = 236000 BitCount = 121 ID = 2017
  23.303446 1  7E9             Rx   d 8 05 62 01 0D FF 00 AA AA  Length = 224000 BitCount = 116 ID = 2025
  23.401481 1  7E1             Tx   d 8 03 22 01 55 00 00 00 00  Length = 234000 BitCount = 120 ID = 2017
  23.403451 1  7E9             Rx   d 8 10 2B 62 01 55 FF 00 C8  Length = 226000 BitCount = 117 ID = 2025
  23.403989 1  7E1             Tx   d 8 30 00 00 00 00 00 00 00  Length = 244000 BitCount = 125 ID = 2017
  23.433718 1  7E9             Rx   d 8 21 00 00 00 00 00 00 00  Length = 242000 BitCount = 125 ID = 2025
  23.463440 1  7E9             Rx   d 8 22 00 00 00 00 00 00 00  Length = 240000 BitCount = 124 ID = 2025
  23.493705 1  7E9             Rx   d 8 23 00 00 00 00 00 00 00  Length = 240000 BitCount = 124 ID = 2025
  23.501479 1  7E1             Tx   d 8 03 22 F1 90 00 00 00 00  Length = 234000 BitCount = 120 ID = 2017
  23.523468 1  7E9             Rx   d 8 24 00 00 00 00 00 00 00  Length = 242000 BitCount = 125 ID = 2025
  23.553693 1  7E9             Rx   d 8 25 00 00 00 00 00 00 00  Length = 240000 BitCount = 124 ID = 2025
  23.583429 1  7E9             Rx   d 8 26 00 00 AA AA AA AA AA  Length = 228000 BitCount = 118 ID = 2025
  24.501571 1  7E1             Tx   d 8 02 10 03 00 00 00 00 00  Length = 242000 BitCount = 124 ID = 2017
  24.503411 1  7E9             Rx   d 8 06 50 03 00 32 00 C8 AA  Length = 228000 BitCount = 118 ID = 2025
  24.801516 1  7E1             Tx   d 8 03 28 03 01 00 00 00 00  Length = 236000 BitCount = 121 ID = 2017
  24.803424 1  7E9             Rx   d 8 02 68 03 AA AA AA AA AA  Length = 222000 BitCount = 115 ID = 2025
  24.901494 1  7E1             Tx   d 8 02 11 01 00 00 00 00 00  Length = 240000 BitCount = 123 ID = 2017
  24.902922 1  7E9             Rx   d 8 02 51 01 AA AA AA AA AA  Length = 220000 BitCount = 114 ID = 2025
  27.100547 1  7E1             Tx   d 8 02 10 01 00 00 00 00 00  Length = 240000 BitCount = 123 ID = 2017
  27.110537 1  7E9             Rx   d 8 06 50 01 00 32 00 C8 AA  Length = 228000 BitCount = 118 ID = 2025
  27.150545 1  7E1             Tx   d 8 02 10 03 00 00 00 00 00  Length = 242000 BitCount = 124 ID = 2017
  27.161031 1  7E9             Rx   d 8 06 50 03 00 32 00 C8 AA  Length = 228000 BitCount = 118 ID = 2025
  27.200554 1  7E1             Tx   d 8 03 28 00 01 00 00 00 00  Length = 240000 BitCount = 123 ID = 2017
  27.210533 1  7E9             Rx   d 8 02 68 00 AA AA AA AA AA  Length = 222000 BitCount = 115 ID = 2025
  27.250552 1  7E1             Tx   d 8 03 22 01 00 00 00 00 00  Length = 238000 BitCount = 122 ID = 2017
  27.261030 1  7E9             Rx   d 8 10 13 62 01 00 FF 00 C8  Length = 230000 BitCount = 119 ID = 2025
  27.261503 1  7E1             Tx   d 8 30 00 00 00 00 00 00 00  Length = 244000 BitCount = 125 ID = 2017
  27.290545 1  7E9             Rx   d 8 21 00 00 00 00 00 00 00  Length = 242000 BitCount = 125 ID = 2025
  27.320800 1  7E9             Rx   d 8 22 00 00 00 00 00 00 AA  Length = 236000 BitCount = 122 ID = 2025
  27.350531 1  7E1             Tx   d 8 03 22 01 0C 00 00 00 00  Length = 238000 BitCount = 122 ID = 2017
  27.361051 1  7E9             Rx   d 8 05 62 01 0C FF 00 AA AA  Length = 226000 BitCount = 117 ID = 2025
  27.450539 1  7E1             Tx   d 8 03 22 01 20 00 00 00 00  Length = 236000 BitCount = 121 ID = 2017
  27.461027 1  7E9             Rx   d 8 10 13 62 01 20 FF 00 C8  Length = 230000 BitCount = 119 ID = 2025
